T3D60 000:097.444   SEGGER J-Link V6.54c Log File
T3D60 000:097.538   DLL Compiled: Nov  7 2019 17:01:02
T3D60 000:097.543   Logging started @ 2020-04-03 06:07
T3D60 000:097.550 JLINK_SetWarnOutHandler(...)
T3D60 000:097.556 - 0.008ms
T3D60 000:097.565 JLINK_OpenEx(...)
T3D60 000:098.345   Firmware: J-Link OB-SAM3U128-V2-NordicSemi compiled Jan  7 2019 14:07:15
T3D60 000:099.885   Hardware: V1.00
T3D60 000:099.898   S/N: 683923201
T3D60 000:099.905   OEM: SEGGER
T3D60 000:099.918   Feature(s): None
T3D60 000:100.691   TELNET listener socket opened on port 19021
T3D60 000:146.154   WEBSRV Starting webserver
T3D60 000:146.294   WEBSRV Webserver running on local port 19080
T3D60 000:146.303 - 48.740ms returns "O.K."
T3D60 000:146.326 JLINK_SetErrorOutHandler(...)
T3D60 000:146.330 - 0.007ms
T3D60 000:146.349 JLINK_ExecCommand("ProjectFile = "D:\software\nrf52840\my_test\test_sleep_wake\project\mdk5\JLinkSettings.ini"", ...). 
T3D60 000:148.379   Ref file found at: C:\Keil_v5\ARM\Segger\JLinkDevices.ref
T3D60 000:148.494   XML referenced by ref file: C:\Program Files (x86)\SEGGER\JLink\JLinkDevices.xml
T3D60 000:149.974   C:\Program Files (x86)\SEGGER\JLink\JLinkDevices.xml evaluated successfully.
T3D60 000:271.713 - 125.380ms returns 0x00
T3D60 000:275.169 JLINK_ExecCommand("Device = nRF52840_xxAA", ...). 
T3D60 000:276.401   Device "NRF52840_XXAA" selected.
T3D60 000:276.852 - 1.670ms returns 0x00
T3D60 000:276.863 JLINK_ExecCommand("DisableConnectionTimeout", ...). 
T3D60 000:276.872 - 0.005ms returns 0x01
T3D60 000:276.878 JLINK_GetHardwareVersion()
T3D60 000:276.886 - 0.010ms returns 0x2710
T3D60 000:276.896 JLINK_GetDLLVersion()  returns 65403
T3D60 000:276.904 JLINK_GetFirmwareString(...)
T3D60 000:276.909 - 0.007ms
T3D60 000:279.171 JLINK_GetDLLVersion()  returns 65403
T3D60 000:279.183 JLINK_GetCompileDateTime()
T3D60 000:279.188 - 0.007ms
T3D60 000:279.873 JLINK_GetFirmwareString(...)
T3D60 000:279.881 - 0.011ms
T3D60 000:280.556 JLINK_GetHardwareVersion()
T3D60 000:280.565 - 0.011ms returns 0x2710
T3D60 000:286.732 JLINK_TIF_Select(JLINKARM_TIF_SWD)
T3D60 000:287.387 - 0.663ms returns 0x00
T3D60 000:287.414 JLINK_SetSpeed(5000)
T3D60 000:287.630 - 0.223ms
T3D60 000:287.644 JLINK_GetId()
T3D60 000:289.404   InitTarget() start
T3D60 000:289.418    J-Link Script File: Executing InitTarget()
T3D60 000:295.116   InitTarget() end
T3D60 000:298.093   Found SW-DP with ID 0x2BA01477
T3D60 000:301.353   Scanning AP map to find all available APs
T3D60 000:307.367   AP[2]: Stopped AP scan as end of AP map has been reached
T3D60 000:308.887   AP[0]: AHB-AP (IDR: 0x24770011)
T3D60 000:310.467   AP[1]: JTAG-AP (IDR: 0x02880000)
T3D60 000:312.014   Iterating through AP map to find AHB-AP to use
T3D60 000:317.663   AP[0]: Core found
T3D60 000:321.590   AP[0]: AHB-AP ROM base: 0xE00FF000
T3D60 000:324.521   CPUID register: 0x410FC241. Implementer code: 0x41 (ARM)
T3D60 000:326.059   Found Cortex-M4 r0p1, Little endian.
T3D60 000:426.756    -- Max. mem block: 0x000048E0
T3D60 000:426.784    -- CPU_ReadMem(4 bytes @ 0xE000EDF0)
T3D60 000:427.524    -- CPU_WriteMem(4 bytes @ 0xE000EDF0)
T3D60 000:428.065    -- CPU_ReadMem(4 bytes @ 0xE0002000)
T3D60 000:434.043   FPUnit: 6 code (BP) slots and 2 literal slots
T3D60 000:434.063    -- CPU_ReadMem(4 bytes @ 0xE000EDFC)
T3D60 000:434.557    -- CPU_WriteMem(4 bytes @ 0xE000EDFC)
T3D60 000:435.035    -- CPU_ReadMem(4 bytes @ 0xE0001000)
T3D60 000:435.493    -- CPU_WriteMem(4 bytes @ 0xE0001000)
T3D60 000:435.970    -- CPU_ReadMem(4 bytes @ 0xE000ED88)
T3D60 000:436.429    -- CPU_WriteMem(4 bytes @ 0xE000ED88)
T3D60 000:436.908    -- CPU_ReadMem(4 bytes @ 0xE000ED88)
T3D60 000:437.368    -- CPU_WriteMem(4 bytes @ 0xE000ED88)
T3D60 000:439.667   CoreSight components:
T3D60 000:441.382   ROMTbl[0] @ E00FF000
T3D60 000:441.397    -- CPU_ReadMem(16 bytes @ 0xE00FF000)
T3D60 000:442.052    -- CPU_ReadMem(16 bytes @ 0xE000EFF0)
T3D60 000:442.733    -- CPU_ReadMem(16 bytes @ 0xE000EFE0)
T3D60 000:447.470   ROMTbl[0][0]: E000E000, CID: B105E00D, PID: 000BB00C SCS-M7
T3D60 000:447.527    -- CPU_ReadMem(16 bytes @ 0xE0001FF0)
T3D60 000:448.168    -- CPU_ReadMem(16 bytes @ 0xE0001FE0)
T3D60 000:450.592   ROMTbl[0][1]: E0001000, CID: B105E00D, PID: 003BB002 DWT
T3D60 000:450.609    -- CPU_ReadMem(16 bytes @ 0xE0002FF0)
T3D60 000:451.267    -- CPU_ReadMem(16 bytes @ 0xE0002FE0)
T3D60 000:453.488   ROMTbl[0][2]: E0002000, CID: B105E00D, PID: 002BB003 FPB
T3D60 000:453.503    -- CPU_ReadMem(16 bytes @ 0xE0000FF0)
T3D60 000:454.239    -- CPU_ReadMem(16 bytes @ 0xE0000FE0)
T3D60 000:456.573   ROMTbl[0][3]: E0000000, CID: B105E00D, PID: 003BB001 ITM
T3D60 000:456.589    -- CPU_ReadMem(16 bytes @ 0xE00FF010)
T3D60 000:457.320    -- CPU_ReadMem(16 bytes @ 0xE0040FF0)
T3D60 000:458.065    -- CPU_ReadMem(16 bytes @ 0xE0040FE0)
T3D60 000:460.406   ROMTbl[0][4]: E0040000, CID: B105900D, PID: 000BB9A1 TPIU
T3D60 000:460.421    -- CPU_ReadMem(16 bytes @ 0xE0041FF0)
T3D60 000:461.198    -- CPU_ReadMem(16 bytes @ 0xE0041FE0)
T3D60 000:463.858   ROMTbl[0][5]: E0041000, CID: B105900D, PID: 000BB925 ETM
T3D60 000:464.184 - 176.549ms   returns 0x2BA01477
T3D60 000:464.203 JLINK_GetDLLVersion()  returns 65403
T3D60 000:464.209 JLINK_CORE_GetFound()
T3D60 000:464.214 - 0.007ms returns 0xE0000FF
T3D60 000:464.230 JLINK_GetDebugInfo(0x100 = JLINKARM_ROM_TABLE_ADDR_INDEX)
T3D60 000:464.237   Value=0xE00FF000
T3D60 000:464.243 - 0.015ms returns 0x00
T3D60 000:469.081 JLINK_GetDebugInfo(0x100 = JLINKARM_ROM_TABLE_ADDR_INDEX)
T3D60 000:469.095   Value=0xE00FF000
T3D60 000:469.102 - 0.023ms returns 0x00
T3D60 000:469.108 JLINK_GetDebugInfo(0x101 = JLINKARM_DEBUG_INFO_ETM_ADDR_INDEX)
T3D60 000:469.113   Value=0xE0041000
T3D60 000:469.120 - 0.013ms returns 0x00
T3D60 000:469.125 JLINK_GetDebugInfo(0x102 = JLINKARM_DEBUG_INFO_MTB_ADDR_INDEX)
T3D60 000:469.130   Value=0x00000000
T3D60 000:469.136 - 0.013ms returns 0x00
T3D60 000:469.141 JLINK_GetDebugInfo(0x103 = JLINKARM_DEBUG_INFO_TPIU_ADDR_INDEX)
T3D60 000:469.146   Value=0xE0040000
T3D60 000:469.153 - 0.013ms returns 0x00
T3D60 000:469.158 JLINK_GetDebugInfo(0x104 = JLINKARM_DEBUG_INFO_ITM_ADDR_INDEX)
T3D60 000:469.163   Value=0xE0000000
T3D60 000:469.169 - 0.013ms returns 0x00
T3D60 000:469.174 JLINK_GetDebugInfo(0x105 = JLINKARM_DEBUG_INFO_DWT_ADDR_INDEX)
T3D60 000:469.179   Value=0xE0001000
T3D60 000:469.186 - 0.013ms returns 0x00
T3D60 000:469.191 JLINK_GetDebugInfo(0x106 = JLINKARM_DEBUG_INFO_FPB_ADDR_INDEX)
T3D60 000:469.196   Value=0xE0002000
T3D60 000:469.202 - 0.013ms returns 0x00
T3D60 000:469.207 JLINK_GetDebugInfo(0x107 = JLINKARM_DEBUG_INFO_NVIC_ADDR_INDEX)
T3D60 000:469.212   Value=0xE000E000
T3D60 000:469.218 - 0.013ms returns 0x00
T3D60 000:469.224 JLINK_GetDebugInfo(0x10C = JLINKARM_DEBUG_INFO_DBG_ADDR_INDEX)
T3D60 000:469.228   Value=0xE000EDF0
T3D60 000:469.235 - 0.013ms returns 0x00
T3D60 000:469.241   JLINK_ReadMemU32(0xE000EF40, 0x0001 Items, ...)
T3D60 000:469.274    -- CPU_ReadMem(4 bytes @ 0xE000EF40)
T3D60 000:469.854   Data:  21 00 11 10
T3D60 000:469.864 - 0.625ms returns 1
T3D60 000:469.871   JLINK_ReadMemU32(0xE000EF44, 0x0001 Items, ...)
T3D60 000:469.880    -- CPU_ReadMem(4 bytes @ 0xE000EF44)
T3D60 000:470.350   Data:  11 00 00 11
T3D60 000:470.359 - 0.490ms returns 1
T3D60 000:470.366   JLINK_ReadMemU32(0xE000ED00, 0x0001 Items, ...)
T3D60 000:470.375    -- CPU_ReadMem(4 bytes @ 0xE000ED00)
T3D60 000:470.873   Data:  41 C2 0F 41
T3D60 000:470.887    - CPUID
T3D60 000:470.894 - 0.530ms returns 1
T3D60 000:470.903 JLINK_SetResetType(JLINKARM_CM3_RESET_TYPE_NORMAL)
T3D60 000:470.908 - 0.007ms returns JLINKARM_CM3_RESET_TYPE_NORMAL
T3D60 000:470.913 JLINK_Reset()
T3D60 000:470.927   CPU is running
T3D60 000:470.935    -- CPU_WriteMem(4 bytes @ 0xE000EDF0)
T3D60 000:471.497   CPU is running
T3D60 000:471.507    -- CPU_WriteMem(4 bytes @ 0xE000EDFC)
T3D60 000:473.660   Reset: Halt core after reset via DEMCR.VC_CORERESET.
T3D60 000:476.192   Reset: Reset device via AIRCR.SYSRESETREQ.
T3D60 000:476.208   CPU is running
T3D60 000:476.217    -- CPU_WriteMem(4 bytes @ 0xE000ED0C)
T3D60 000:528.500    -- CPU_ReadMem(4 bytes @ 0xE000EDF0)
T3D60 000:529.028    -- CPU_ReadMem(4 bytes @ 0xE000EDF0)
T3D60 000:529.660   CPU is running
T3D60 000:529.675    -- CPU_WriteMem(4 bytes @ 0xE000EDF0)
T3D60 000:530.202   CPU is running
T3D60 000:530.215    -- CPU_WriteMem(4 bytes @ 0xE000EDFC)
T3D60 000:535.977    -- CPU_ReadMem(4 bytes @ 0xE000EDF0)
T3D60 000:542.956    -- CPU_WriteMem(4 bytes @ 0xE0002000)
T3D60 000:543.542    -- CPU_ReadMem(4 bytes @ 0xE000EDFC)
T3D60 000:544.156    -- CPU_ReadMem(4 bytes @ 0xE0001000)
T3D60 000:544.701 - 73.796ms
T3D60 000:544.723 JLINK_Halt()
T3D60 000:544.728 - 0.007ms returns 0x00
T3D60 000:544.734 JLINK_IsHalted()
T3D60 000:544.739 - 0.007ms returns TRUE
T3D60 000:544.776   JLINK_ReadMemU32(0xE000EDF0, 0x0001 Items, ...)
T3D60 000:544.788    -- CPU_ReadMem(4 bytes @ 0xE000EDF0)
T3D60 000:545.314   Data:  03 00 03 00
T3D60 000:545.327    - DHCSR
T3D60 000:545.334 - 0.560ms returns 1
T3D60 000:545.353   JLINK_WriteU32(0xE000EDF0, 0xA05F0003)
T3D60 000:545.361    - DHCSR
T3D60 000:545.378    -- CPU_WriteMem(4 bytes @ 0xE000EDF0)
T3D60 000:545.901 - 0.558ms returns 0
T3D60 000:545.915   JLINK_WriteU32(0xE000EDFC, 0x01000000)
T3D60 000:545.922    - DEMCR
T3D60 000:545.934    -- CPU_WriteMem(4 bytes @ 0xE000EDFC)
T3D60 000:546.473 - 0.564ms returns 0
T3D60 000:553.154 JLINK_GetHWStatus(...)
T3D60 000:553.418 - 0.272ms returns 0x00
T3D60 000:557.978 JLINK_GetNumBPUnits(Type = 0xFFFFFF00)
T3D60 000:557.993 - 0.017ms returns 0x06
T3D60 000:558.000 JLINK_GetNumBPUnits(Type = 0xF0)
T3D60 000:558.004 - 0.007ms returns 0x2000
T3D60 000:558.010 JLINK_GetNumWPUnits()
T3D60 000:558.014 - 0.006ms returns 0x04
T3D60 000:567.843 JLINK_GetSpeed()
T3D60 000:567.858 - 0.017ms returns 0x3E8
T3D60 000:572.818   JLINK_ReadMemU32(0xE000E004, 0x0001 Items, ...)
T3D60 000:572.842    -- CPU_ReadMem(4 bytes @ 0xE000E004)
T3D60 000:573.442   Data:  01 00 00 00
T3D60 000:573.454 - 0.639ms returns 1
T3D60 000:573.463   JLINK_ReadMemU32(0xE000E004, 0x0001 Items, ...)
T3D60 000:573.474    -- CPU_ReadMem(4 bytes @ 0xE000E004)
T3D60 000:573.953   Data:  01 00 00 00
T3D60 000:573.964 - 0.504ms returns 1
T3D60 000:573.971 JLINK_WriteMem(0xE0001000, 0x001C Bytes, ...)
T3D60 000:573.977   Data:  01 00 00 00 00 00 00 00 00 00 00 00 00 00 00 00 ...
T3D60 000:574.279    -- CPU_WriteMem(28 bytes @ 0xE0001000)
T3D60 000:575.060 - 1.094ms returns 0x1C
T3D60 000:575.070 JLINK_ReadMem (0xE0001000, 0x001C Bytes, ...)
T3D60 000:575.078    -- CPU_ReadMem(28 bytes @ 0xE0001000)
T3D60 000:575.874   Data:  01 00 00 40 00 00 00 00 00 00 00 00 00 00 00 00 ...
T3D60 000:575.883 - 0.815ms returns 0x00
T3D60 000:575.892 JLINK_Halt()
T3D60 000:575.897 - 0.007ms returns 0x00
T3D60 000:575.902 JLINK_IsHalted()
T3D60 000:575.908 - 0.007ms returns TRUE
T3D60 000:577.765 JLINK_WriteMem(0x20000000, 0x06E4 Bytes, ...)
T3D60 000:577.774   Data:  00 BE 0A E0 0D 78 2D 06 68 40 08 24 40 00 00 D3 ...
T3D60 000:578.063    -- CPU_WriteMem(1764 bytes @ 0x20000000)
T3D60 000:602.057 - 24.305ms returns 0x6E4
T3D60 000:602.108 JLINK_WriteReg(R0, 0x00000000)
T3D60 000:602.118 - 0.012ms returns 0x00
T3D60 000:602.155 JLINK_WriteReg(R1, 0x03D09000)
T3D60 000:602.160 - 0.007ms returns 0x00
T3D60 000:602.166 JLINK_WriteReg(R2, 0x00000001)
T3D60 000:602.171 - 0.007ms returns 0x00
T3D60 000:602.176 JLINK_WriteReg(R3, 0x00000000)
T3D60 000:602.181 - 0.007ms returns 0x00
T3D60 000:602.187 JLINK_WriteReg(R4, 0x00000000)
T3D60 000:602.192 - 0.007ms returns 0x00
T3D60 000:602.197 JLINK_WriteReg(R5, 0x00000000)
T3D60 000:602.202 - 0.007ms returns 0x00
T3D60 000:602.207 JLINK_WriteReg(R6, 0x00000000)
T3D60 000:602.212 - 0.007ms returns 0x00
T3D60 000:602.217 JLINK_WriteReg(R7, 0x00000000)
T3D60 000:602.222 - 0.007ms returns 0x00
T3D60 000:602.228 JLINK_WriteReg(R8, 0x00000000)
T3D60 000:602.245 - 0.020ms returns 0x00
T3D60 000:602.251 JLINK_WriteReg(R9, 0x200006E0)
T3D60 000:602.256 - 0.007ms returns 0x00
T3D60 000:602.261 JLINK_WriteReg(R10, 0x00000000)
T3D60 000:602.268 - 0.009ms returns 0x00
T3D60 000:602.274 JLINK_WriteReg(R11, 0x00000000)
T3D60 000:602.279 - 0.007ms returns 0x00
T3D60 000:602.285 JLINK_WriteReg(R12, 0x00000000)
T3D60 000:602.289 - 0.007ms returns 0x00
T3D60 000:602.295 JLINK_WriteReg(R13 (SP), 0x20004000)
T3D60 000:602.300 - 0.008ms returns 0x00
T3D60 000:602.306 JLINK_WriteReg(R14, 0x20000001)
T3D60 000:602.311 - 0.007ms returns 0x00
T3D60 000:602.316 JLINK_WriteReg(R15 (PC), 0x20000020)
T3D60 000:602.321 - 0.007ms returns 0x00
T3D60 000:602.327 JLINK_WriteReg(XPSR, 0x01000000)
T3D60 000:602.332 - 0.007ms returns 0x00
T3D60 000:602.337 JLINK_WriteReg(MSP, 0x20004000)
T3D60 000:602.342 - 0.007ms returns 0x00
T3D60 000:602.347 JLINK_WriteReg(PSP, 0x20004000)
T3D60 000:602.352 - 0.007ms returns 0x00
T3D60 000:602.358 JLINK_WriteReg(CFBP, 0x00000000)
T3D60 000:602.363 - 0.007ms returns 0x00
T3D60 000:602.369   JLINK_SetBPEx(Addr = 0x20000000, Type = 0xFFFFFFF2)
T3D60 000:602.381    -- CPU_ReadMem(2 bytes @ 0x20000000)
T3D60 000:603.032 - 0.672ms returns 0x00000001
T3D60 000:603.046 JLINK_Go()
T3D60 000:603.055    -- CPU_WriteMem(2 bytes @ 0x20000000)
T3D60 000:603.618    -- CPU_ReadMem(4 bytes @ 0xE0001000)
T3D60 000:604.148    -- CPU_WriteMem(4 bytes @ 0xE0002008)
T3D60 000:604.162    -- CPU_WriteMem(4 bytes @ 0xE000200C)
T3D60 000:604.169    -- CPU_WriteMem(4 bytes @ 0xE0002010)
T3D60 000:604.176    -- CPU_WriteMem(4 bytes @ 0xE0002014)
T3D60 000:604.183    -- CPU_WriteMem(4 bytes @ 0xE0002018)
T3D60 000:604.190    -- CPU_WriteMem(4 bytes @ 0xE000201C)
T3D60 000:606.763    -- CPU_WriteMem(4 bytes @ 0xE0001004)
T3D60 000:613.074 - 10.036ms
T3D60 000:613.089 JLINK_IsHalted()
T3D60 000:619.344    -- CPU_ReadMem(2 bytes @ 0x20000000)
T3D60 000:619.909 - 6.828ms returns TRUE
T3D60 000:619.923 JLINK_ReadReg(R15 (PC))
T3D60 000:619.930 - 0.009ms returns 0x20000000
T3D60 000:619.936 JLINK_ClrBPEx(BPHandle = 0x00000001)
T3D60 000:619.942 - 0.007ms returns 0x00
T3D60 000:619.947 JLINK_ReadReg(R0)
T3D60 000:619.952 - 0.007ms returns 0x00000000
T3D60 000:621.063 JLINK_WriteReg(R0, 0x00000000)
T3D60 000:621.075 - 0.015ms returns 0x00
T3D60 000:621.081 JLINK_WriteReg(R1, 0x00001000)
T3D60 000:621.086 - 0.007ms returns 0x00
T3D60 000:621.092 JLINK_WriteReg(R2, 0x000000FF)
T3D60 000:621.097 - 0.007ms returns 0x00
T3D60 000:621.102 JLINK_WriteReg(R3, 0x00000000)
T3D60 000:621.107 - 0.007ms returns 0x00
T3D60 000:621.112 JLINK_WriteReg(R4, 0x00000000)
T3D60 000:621.117 - 0.007ms returns 0x00
T3D60 000:621.122 JLINK_WriteReg(R5, 0x00000000)
T3D60 000:621.127 - 0.007ms returns 0x00
T3D60 000:621.133 JLINK_WriteReg(R6, 0x00000000)
T3D60 000:621.138 - 0.007ms returns 0x00
T3D60 000:621.143 JLINK_WriteReg(R7, 0x00000000)
T3D60 000:621.148 - 0.007ms returns 0x00
T3D60 000:621.153 JLINK_WriteReg(R8, 0x00000000)
T3D60 000:621.158 - 0.007ms returns 0x00
T3D60 000:621.164 JLINK_WriteReg(R9, 0x200006E0)
T3D60 000:621.169 - 0.007ms returns 0x00
T3D60 000:621.174 JLINK_WriteReg(R10, 0x00000000)
T3D60 000:621.179 - 0.007ms returns 0x00
T3D60 000:621.184 JLINK_WriteReg(R11, 0x00000000)
T3D60 000:621.189 - 0.007ms returns 0x00
T3D60 000:621.195 JLINK_WriteReg(R12, 0x00000000)
T3D60 000:621.200 - 0.007ms returns 0x00
T3D60 000:621.205 JLINK_WriteReg(R13 (SP), 0x20004000)
T3D60 000:621.210 - 0.007ms returns 0x00
T3D60 000:621.216 JLINK_WriteReg(R14, 0x20000001)
T3D60 000:621.221 - 0.007ms returns 0x00
T3D60 000:621.226 JLINK_WriteReg(R15 (PC), 0x20000344)
T3D60 000:621.231 - 0.007ms returns 0x00
T3D60 000:621.237 JLINK_WriteReg(XPSR, 0x01000000)
T3D60 000:621.242 - 0.007ms returns 0x00
T3D60 000:621.247 JLINK_WriteReg(MSP, 0x20004000)
T3D60 000:621.252 - 0.007ms returns 0x00
T3D60 000:621.257 JLINK_WriteReg(PSP, 0x20004000)
T3D60 000:621.262 - 0.007ms returns 0x00
T3D60 000:621.268 JLINK_WriteReg(CFBP, 0x00000000)
T3D60 000:621.272 - 0.007ms returns 0x00
T3D60 000:621.279   JLINK_SetBPEx(Addr = 0x20000000, Type = 0xFFFFFFF2)
T3D60 000:621.286 - 0.010ms returns 0x00000002
T3D60 000:621.292 JLINK_Go()
T3D60 000:621.336    -- CPU_ReadMem(4 bytes @ 0xE0001000)
T3D60 000:627.631 - 6.348ms
T3D60 000:627.645 JLINK_IsHalted()
T3D60 000:633.889    -- CPU_ReadMem(2 bytes @ 0x20000000)
T3D60 000:634.404 - 6.768ms returns TRUE
T3D60 000:634.421 JLINK_ReadReg(R15 (PC))
T3D60 000:634.429 - 0.010ms returns 0x20000000
T3D60 000:634.435 JLINK_ClrBPEx(BPHandle = 0x00000002)
T3D60 000:634.440 - 0.007ms returns 0x00
T3D60 000:634.446 JLINK_ReadReg(R0)
T3D60 000:634.451 - 0.007ms returns 0x00000001
T3D60 000:634.486 JLINK_WriteReg(R0, 0x00000000)
T3D60 000:634.492 - 0.008ms returns 0x00
T3D60 000:634.497 JLINK_WriteReg(R1, 0x00001000)
T3D60 000:634.502 - 0.007ms returns 0x00
T3D60 000:634.508 JLINK_WriteReg(R2, 0x000000FF)
T3D60 000:634.512 - 0.007ms returns 0x00
T3D60 000:634.518 JLINK_WriteReg(R3, 0x00000000)
T3D60 000:634.523 - 0.007ms returns 0x00
T3D60 000:634.528 JLINK_WriteReg(R4, 0x00000000)
T3D60 000:634.533 - 0.007ms returns 0x00
T3D60 000:634.538 JLINK_WriteReg(R5, 0x00000000)
T3D60 000:634.543 - 0.007ms returns 0x00
T3D60 000:634.549 JLINK_WriteReg(R6, 0x00000000)
T3D60 000:634.553 - 0.007ms returns 0x00
T3D60 000:634.559 JLINK_WriteReg(R7, 0x00000000)
T3D60 000:634.564 - 0.007ms returns 0x00
T3D60 000:634.569 JLINK_WriteReg(R8, 0x00000000)
T3D60 000:634.574 - 0.007ms returns 0x00
T3D60 000:634.579 JLINK_WriteReg(R9, 0x200006E0)
T3D60 000:634.584 - 0.007ms returns 0x00
T3D60 000:634.590 JLINK_WriteReg(R10, 0x00000000)
T3D60 000:634.595 - 0.007ms returns 0x00
T3D60 000:634.600 JLINK_WriteReg(R11, 0x00000000)
T3D60 000:634.605 - 0.007ms returns 0x00
T3D60 000:634.611 JLINK_WriteReg(R12, 0x00000000)
T3D60 000:634.616 - 0.007ms returns 0x00
T3D60 000:634.621 JLINK_WriteReg(R13 (SP), 0x20004000)
T3D60 000:634.626 - 0.007ms returns 0x00
T3D60 000:634.633 JLINK_WriteReg(R14, 0x20000001)
T3D60 000:634.638 - 0.007ms returns 0x00
T3D60 000:634.644 JLINK_WriteReg(R15 (PC), 0x20000188)
T3D60 000:634.649 - 0.007ms returns 0x00
T3D60 000:634.654 JLINK_WriteReg(XPSR, 0x01000000)
T3D60 000:634.659 - 0.007ms returns 0x00
T3D60 000:634.665 JLINK_WriteReg(MSP, 0x20004000)
T3D60 000:634.670 - 0.007ms returns 0x00
T3D60 000:634.675 JLINK_WriteReg(PSP, 0x20004000)
T3D60 000:634.680 - 0.007ms returns 0x00
T3D60 000:634.685 JLINK_WriteReg(CFBP, 0x00000000)
T3D60 000:634.690 - 0.007ms returns 0x00
T3D60 000:634.696   JLINK_SetBPEx(Addr = 0x20000000, Type = 0xFFFFFFF2)
T3D60 000:634.704 - 0.010ms returns 0x00000003
T3D60 000:634.710 JLINK_Go()
T3D60 000:634.720    -- CPU_ReadMem(4 bytes @ 0xE0001000)
T3D60 000:640.894 - 6.193ms
T3D60 000:640.910 JLINK_IsHalted()
T3D60 000:641.517 - 0.612ms returns FALSE
T3D60 000:693.562 JLINK_IsHalted()
T3D60 000:694.154 - 0.599ms returns FALSE
T3D60 000:695.525 JLINK_IsHalted()
T3D60 000:696.147 - 0.631ms returns FALSE
T3D60 000:697.476 JLINK_IsHalted()
T3D60 000:698.049 - 0.580ms returns FALSE
T3D60 000:699.495 JLINK_IsHalted()
T3D60 000:700.048 - 0.561ms returns FALSE
T3D60 000:701.535 JLINK_IsHalted()
T3D60 000:702.091 - 0.564ms returns FALSE
T3D60 000:703.519 JLINK_IsHalted()
T3D60 000:704.072 - 0.561ms returns FALSE
T3D60 000:705.514 JLINK_IsHalted()
T3D60 000:706.050 - 0.543ms returns FALSE
T3D60 000:707.522 JLINK_IsHalted()
T3D60 000:708.070 - 0.555ms returns FALSE
T3D60 000:709.506 JLINK_IsHalted()
T3D60 000:710.049 - 0.550ms returns FALSE
T3D60 000:711.498 JLINK_IsHalted()
T3D60 000:712.049 - 0.558ms returns FALSE
T3D60 000:713.508 JLINK_IsHalted()
T3D60 000:714.128 - 0.630ms returns FALSE
T3D60 000:715.519 JLINK_IsHalted()
T3D60 000:716.106 - 0.595ms returns FALSE
T3D60 000:717.454 JLINK_IsHalted()
T3D60 000:718.027 - 0.581ms returns FALSE
T3D60 000:719.434 JLINK_IsHalted()
T3D60 000:720.000 - 0.571ms returns FALSE
T3D60 000:721.404 JLINK_IsHalted()
T3D60 000:721.994 - 0.595ms returns FALSE
T3D60 000:723.458 JLINK_IsHalted()
T3D60 000:729.648    -- CPU_ReadMem(2 bytes @ 0x20000000)
T3D60 000:730.231 - 6.779ms returns TRUE
T3D60 000:730.242 JLINK_ReadReg(R15 (PC))
T3D60 000:730.249 - 0.009ms returns 0x20000000
T3D60 000:730.258 JLINK_ClrBPEx(BPHandle = 0x00000003)
T3D60 000:730.265 - 0.009ms returns 0x00
T3D60 000:730.271 JLINK_ReadReg(R0)
T3D60 000:730.276 - 0.007ms returns 0x00000000
T3D60 000:730.727 JLINK_WriteReg(R0, 0x00001000)
T3D60 000:730.738 - 0.014ms returns 0x00
T3D60 000:730.744 JLINK_WriteReg(R1, 0x00001000)
T3D60 000:730.750 - 0.007ms returns 0x00
T3D60 000:730.755 JLINK_WriteReg(R2, 0x000000FF)
T3D60 000:730.760 - 0.007ms returns 0x00
T3D60 000:730.766 JLINK_WriteReg(R3, 0x00000000)
T3D60 000:730.771 - 0.007ms returns 0x00
T3D60 000:730.776 JLINK_WriteReg(R4, 0x00000000)
T3D60 000:730.781 - 0.007ms returns 0x00
T3D60 000:730.786 JLINK_WriteReg(R5, 0x00000000)
T3D60 000:730.791 - 0.007ms returns 0x00
T3D60 000:730.797 JLINK_WriteReg(R6, 0x00000000)
T3D60 000:730.802 - 0.007ms returns 0x00
T3D60 000:730.807 JLINK_WriteReg(R7, 0x00000000)
T3D60 000:730.812 - 0.007ms returns 0x00
T3D60 000:730.817 JLINK_WriteReg(R8, 0x00000000)
T3D60 000:730.822 - 0.007ms returns 0x00
T3D60 000:730.828 JLINK_WriteReg(R9, 0x200006E0)
T3D60 000:730.833 - 0.007ms returns 0x00
T3D60 000:730.838 JLINK_WriteReg(R10, 0x00000000)
T3D60 000:730.843 - 0.007ms returns 0x00
T3D60 000:730.848 JLINK_WriteReg(R11, 0x00000000)
T3D60 000:730.854 - 0.007ms returns 0x00
T3D60 000:730.859 JLINK_WriteReg(R12, 0x00000000)
T3D60 000:730.864 - 0.007ms returns 0x00
T3D60 000:730.869 JLINK_WriteReg(R13 (SP), 0x20004000)
T3D60 000:730.875 - 0.007ms returns 0x00
T3D60 000:730.880 JLINK_WriteReg(R14, 0x20000001)
T3D60 000:730.885 - 0.007ms returns 0x00
T3D60 000:730.890 JLINK_WriteReg(R15 (PC), 0x20000344)
T3D60 000:730.895 - 0.007ms returns 0x00
T3D60 000:730.901 JLINK_WriteReg(XPSR, 0x01000000)
T3D60 000:730.906 - 0.007ms returns 0x00
T3D60 000:730.911 JLINK_WriteReg(MSP, 0x20004000)
T3D60 000:730.916 - 0.007ms returns 0x00
T3D60 000:730.921 JLINK_WriteReg(PSP, 0x20004000)
T3D60 000:730.926 - 0.007ms returns 0x00
T3D60 000:730.932 JLINK_WriteReg(CFBP, 0x00000000)
T3D60 000:730.937 - 0.007ms returns 0x00
T3D60 000:730.943   JLINK_SetBPEx(Addr = 0x20000000, Type = 0xFFFFFFF2)
T3D60 000:730.951 - 0.010ms returns 0x00000004
T3D60 000:730.957 JLINK_Go()
T3D60 000:730.967    -- CPU_ReadMem(4 bytes @ 0xE0001000)
T3D60 000:737.270 - 6.322ms
T3D60 000:737.284 JLINK_IsHalted()
T3D60 000:743.558    -- CPU_ReadMem(2 bytes @ 0x20000000)
T3D60 000:744.148 - 6.871ms returns TRUE
T3D60 000:744.164 JLINK_ReadReg(R15 (PC))
T3D60 000:744.171 - 0.009ms returns 0x20000000
T3D60 000:744.177 JLINK_ClrBPEx(BPHandle = 0x00000004)
T3D60 000:744.182 - 0.007ms returns 0x00
T3D60 000:744.188 JLINK_ReadReg(R0)
T3D60 000:744.193 - 0.007ms returns 0x00000001
T3D60 000:744.227 JLINK_WriteReg(R0, 0x00001000)
T3D60 000:744.232 - 0.008ms returns 0x00
T3D60 000:744.238 JLINK_WriteReg(R1, 0x00001000)
T3D60 000:744.243 - 0.007ms returns 0x00
T3D60 000:744.248 JLINK_WriteReg(R2, 0x000000FF)
T3D60 000:744.253 - 0.007ms returns 0x00
T3D60 000:744.259 JLINK_WriteReg(R3, 0x00000000)
T3D60 000:744.264 - 0.007ms returns 0x00
T3D60 000:744.269 JLINK_WriteReg(R4, 0x00000000)
T3D60 000:744.274 - 0.007ms returns 0x00
T3D60 000:744.279 JLINK_WriteReg(R5, 0x00000000)
T3D60 000:744.284 - 0.007ms returns 0x00
T3D60 000:744.290 JLINK_WriteReg(R6, 0x00000000)
T3D60 000:744.294 - 0.007ms returns 0x00
T3D60 000:744.300 JLINK_WriteReg(R7, 0x00000000)
T3D60 000:744.305 - 0.007ms returns 0x00
T3D60 000:744.310 JLINK_WriteReg(R8, 0x00000000)
T3D60 000:744.315 - 0.007ms returns 0x00
T3D60 000:744.320 JLINK_WriteReg(R9, 0x200006E0)
T3D60 000:744.325 - 0.007ms returns 0x00
T3D60 000:744.331 JLINK_WriteReg(R10, 0x00000000)
T3D60 000:744.335 - 0.007ms returns 0x00
T3D60 000:744.341 JLINK_WriteReg(R11, 0x00000000)
T3D60 000:744.346 - 0.007ms returns 0x00
T3D60 000:744.351 JLINK_WriteReg(R12, 0x00000000)
T3D60 000:744.356 - 0.007ms returns 0x00
T3D60 000:744.362 JLINK_WriteReg(R13 (SP), 0x20004000)
T3D60 000:744.367 - 0.008ms returns 0x00
T3D60 000:744.373 JLINK_WriteReg(R14, 0x20000001)
T3D60 000:744.378 - 0.007ms returns 0x00
T3D60 000:744.386 JLINK_WriteReg(R15 (PC), 0x20000188)
T3D60 000:744.392 - 0.008ms returns 0x00
T3D60 000:744.397 JLINK_WriteReg(XPSR, 0x01000000)
T3D60 000:744.402 - 0.007ms returns 0x00
T3D60 000:744.408 JLINK_WriteReg(MSP, 0x20004000)
T3D60 000:744.413 - 0.007ms returns 0x00
T3D60 000:744.418 JLINK_WriteReg(PSP, 0x20004000)
T3D60 000:744.423 - 0.007ms returns 0x00
T3D60 000:744.428 JLINK_WriteReg(CFBP, 0x00000000)
T3D60 000:744.433 - 0.007ms returns 0x00
T3D60 000:744.439   JLINK_SetBPEx(Addr = 0x20000000, Type = 0xFFFFFFF2)
T3D60 000:744.447 - 0.010ms returns 0x00000005
T3D60 000:744.452 JLINK_Go()
T3D60 000:744.461    -- CPU_ReadMem(4 bytes @ 0xE0001000)
T3D60 000:750.881 - 6.437ms
T3D60 000:750.895 JLINK_IsHalted()
T3D60 000:751.405 - 0.517ms returns FALSE
T3D60 000:755.313 JLINK_IsHalted()
T3D60 000:755.860 - 0.553ms returns FALSE
T3D60 000:757.342 JLINK_IsHalted()
T3D60 000:757.914 - 0.580ms returns FALSE
T3D60 000:759.377 JLINK_IsHalted()
T3D60 000:759.917 - 0.548ms returns FALSE
T3D60 000:764.292 JLINK_IsHalted()
T3D60 000:764.850 - 0.564ms returns FALSE
T3D60 000:766.283 JLINK_IsHalted()
T3D60 000:766.785 - 0.506ms returns FALSE
T3D60 000:769.376 JLINK_IsHalted()
T3D60 000:769.958 - 0.590ms returns FALSE
T3D60 000:771.368 JLINK_IsHalted()
T3D60 000:771.960 - 0.600ms returns FALSE
T3D60 000:773.336 JLINK_IsHalted()
T3D60 000:773.914 - 0.586ms returns FALSE
T3D60 000:775.354 JLINK_IsHalted()
T3D60 000:775.939 - 0.592ms returns FALSE
T3D60 000:777.322 JLINK_IsHalted()
T3D60 000:777.937 - 0.622ms returns FALSE
T3D60 000:779.307 JLINK_IsHalted()
T3D60 000:779.959 - 0.660ms returns FALSE
T3D60 000:784.261 JLINK_IsHalted()
T3D60 000:784.856 - 0.603ms returns FALSE
T3D60 000:786.299 JLINK_IsHalted()
T3D60 000:786.873 - 0.583ms returns FALSE
T3D60 000:788.284 JLINK_IsHalted()
T3D60 000:788.853 - 0.577ms returns FALSE
T3D60 000:790.287 JLINK_IsHalted()
T3D60 000:790.879 - 0.600ms returns FALSE
T3D60 000:792.291 JLINK_IsHalted()
T3D60 000:792.885 - 0.601ms returns FALSE
T3D60 000:794.212 JLINK_IsHalted()
T3D60 000:794.758 - 0.551ms returns FALSE
T3D60 000:796.207 JLINK_IsHalted()
T3D60 000:796.770 - 0.568ms returns FALSE
T3D60 000:798.199 JLINK_IsHalted()
T3D60 000:798.726 - 0.532ms returns FALSE
T3D60 000:800.195 JLINK_IsHalted()
T3D60 000:800.702 - 0.511ms returns FALSE
T3D60 000:802.249 JLINK_IsHalted()
T3D60 000:802.822 - 0.580ms returns FALSE
T3D60 000:804.217 JLINK_IsHalted()
T3D60 000:804.781 - 0.571ms returns FALSE
T3D60 000:806.220 JLINK_IsHalted()
T3D60 000:806.798 - 0.586ms returns FALSE
T3D60 000:808.208 JLINK_IsHalted()
T3D60 000:808.819 - 0.618ms returns FALSE
T3D60 000:810.168 JLINK_IsHalted()
T3D60 000:810.778 - 0.618ms returns FALSE
T3D60 000:812.196 JLINK_IsHalted()
T3D60 000:812.780 - 0.590ms returns FALSE
T3D60 000:814.189 JLINK_IsHalted()
T3D60 000:814.714 - 0.530ms returns FALSE
T3D60 000:816.183 JLINK_IsHalted()
T3D60 000:816.749 - 0.574ms returns FALSE
T3D60 000:818.213 JLINK_IsHalted()
T3D60 000:818.788 - 0.582ms returns FALSE
T3D60 000:820.188 JLINK_IsHalted()
T3D60 000:820.776 - 0.596ms returns FALSE
T3D60 000:822.136 JLINK_IsHalted()
T3D60 000:822.640 - 0.511ms returns FALSE
T3D60 000:825.126 JLINK_IsHalted()
T3D60 000:825.703 - 0.582ms returns FALSE
T3D60 000:827.210 JLINK_IsHalted()
T3D60 000:827.792 - 0.589ms returns FALSE
T3D60 000:829.197 JLINK_IsHalted()
T3D60 000:829.812 - 0.622ms returns FALSE
T3D60 000:831.177 JLINK_IsHalted()
T3D60 000:831.752 - 0.583ms returns FALSE
T3D60 000:834.169 JLINK_IsHalted()
T3D60 000:840.452    -- CPU_ReadMem(2 bytes @ 0x20000000)
T3D60 000:841.026 - 6.865ms returns TRUE
T3D60 000:841.040 JLINK_ReadReg(R15 (PC))
T3D60 000:841.048 - 0.010ms returns 0x20000000
T3D60 000:841.054 JLINK_ClrBPEx(BPHandle = 0x00000005)
T3D60 000:841.059 - 0.007ms returns 0x00
T3D60 000:841.065 JLINK_ReadReg(R0)
T3D60 000:841.070 - 0.007ms returns 0x00000000
T3D60 000:843.837 JLINK_WriteReg(R0, 0x00002000)
T3D60 000:843.850 - 0.016ms returns 0x00
T3D60 000:843.856 JLINK_WriteReg(R1, 0x00001000)
T3D60 000:843.864 - 0.011ms returns 0x00
T3D60 000:843.871 JLINK_WriteReg(R2, 0x000000FF)
T3D60 000:843.876 - 0.007ms returns 0x00
T3D60 000:843.881 JLINK_WriteReg(R3, 0x00000000)
T3D60 000:843.886 - 0.007ms returns 0x00
T3D60 000:843.892 JLINK_WriteReg(R4, 0x00000000)
T3D60 000:843.897 - 0.007ms returns 0x00
T3D60 000:843.902 JLINK_WriteReg(R5, 0x00000000)
T3D60 000:843.907 - 0.007ms returns 0x00
T3D60 000:843.912 JLINK_WriteReg(R6, 0x00000000)
T3D60 000:843.917 - 0.007ms returns 0x00
T3D60 000:843.922 JLINK_WriteReg(R7, 0x00000000)
T3D60 000:843.927 - 0.007ms returns 0x00
T3D60 000:843.932 JLINK_WriteReg(R8, 0x00000000)
T3D60 000:843.937 - 0.007ms returns 0x00
T3D60 000:843.943 JLINK_WriteReg(R9, 0x200006E0)
T3D60 000:843.948 - 0.007ms returns 0x00
T3D60 000:843.953 JLINK_WriteReg(R10, 0x00000000)
T3D60 000:843.958 - 0.007ms returns 0x00
T3D60 000:843.964 JLINK_WriteReg(R11, 0x00000000)
T3D60 000:843.969 - 0.007ms returns 0x00
T3D60 000:843.974 JLINK_WriteReg(R12, 0x00000000)
T3D60 000:843.979 - 0.007ms returns 0x00
T3D60 000:843.984 JLINK_WriteReg(R13 (SP), 0x20004000)
T3D60 000:843.989 - 0.007ms returns 0x00
T3D60 000:843.995 JLINK_WriteReg(R14, 0x20000001)
T3D60 000:844.000 - 0.007ms returns 0x00
T3D60 000:844.005 JLINK_WriteReg(R15 (PC), 0x20000344)
T3D60 000:844.010 - 0.007ms returns 0x00
T3D60 000:844.015 JLINK_WriteReg(XPSR, 0x01000000)
T3D60 000:844.020 - 0.007ms returns 0x00
T3D60 000:844.026 JLINK_WriteReg(MSP, 0x20004000)
T3D60 000:844.031 - 0.007ms returns 0x00
T3D60 000:844.036 JLINK_WriteReg(PSP, 0x20004000)
T3D60 000:844.041 - 0.007ms returns 0x00
T3D60 000:844.046 JLINK_WriteReg(CFBP, 0x00000000)
T3D60 000:844.051 - 0.007ms returns 0x00
T3D60 000:844.057   JLINK_SetBPEx(Addr = 0x20000000, Type = 0xFFFFFFF2)
T3D60 000:844.065 - 0.010ms returns 0x00000006
T3D60 000:844.072 JLINK_Go()
T3D60 000:844.084    -- CPU_ReadMem(4 bytes @ 0xE0001000)
T3D60 000:850.325 - 6.262ms
T3D60 000:850.341 JLINK_IsHalted()
T3D60 000:856.639    -- CPU_ReadMem(2 bytes @ 0x20000000)
T3D60 000:857.239 - 6.903ms returns TRUE
T3D60 000:857.252 JLINK_ReadReg(R15 (PC))
T3D60 000:857.259 - 0.009ms returns 0x20000000
T3D60 000:857.293 JLINK_ClrBPEx(BPHandle = 0x00000006)
T3D60 000:857.299 - 0.007ms returns 0x00
T3D60 000:857.304 JLINK_ReadReg(R0)
T3D60 000:857.309 - 0.007ms returns 0x00000001
T3D60 000:857.317 JLINK_WriteReg(R0, 0x00002000)
T3D60 000:857.322 - 0.008ms returns 0x00
T3D60 000:857.328 JLINK_WriteReg(R1, 0x00001000)
T3D60 000:857.333 - 0.007ms returns 0x00
T3D60 000:857.338 JLINK_WriteReg(R2, 0x000000FF)
T3D60 000:857.343 - 0.007ms returns 0x00
T3D60 000:857.349 JLINK_WriteReg(R3, 0x00000000)
T3D60 000:857.354 - 0.007ms returns 0x00
T3D60 000:857.359 JLINK_WriteReg(R4, 0x00000000)
T3D60 000:857.364 - 0.007ms returns 0x00
T3D60 000:857.369 JLINK_WriteReg(R5, 0x00000000)
T3D60 000:857.374 - 0.007ms returns 0x00
T3D60 000:857.379 JLINK_WriteReg(R6, 0x00000000)
T3D60 000:857.384 - 0.007ms returns 0x00
T3D60 000:857.390 JLINK_WriteReg(R7, 0x00000000)
T3D60 000:857.394 - 0.007ms returns 0x00
T3D60 000:857.400 JLINK_WriteReg(R8, 0x00000000)
T3D60 000:857.405 - 0.007ms returns 0x00
T3D60 000:857.410 JLINK_WriteReg(R9, 0x200006E0)
T3D60 000:857.415 - 0.007ms returns 0x00
T3D60 000:857.420 JLINK_WriteReg(R10, 0x00000000)
T3D60 000:857.425 - 0.007ms returns 0x00
T3D60 000:857.431 JLINK_WriteReg(R11, 0x00000000)
T3D60 000:857.436 - 0.007ms returns 0x00
T3D60 000:857.441 JLINK_WriteReg(R12, 0x00000000)
T3D60 000:857.446 - 0.007ms returns 0x00
T3D60 000:857.451 JLINK_WriteReg(R13 (SP), 0x20004000)
T3D60 000:857.456 - 0.007ms returns 0x00
T3D60 000:857.462 JLINK_WriteReg(R14, 0x20000001)
T3D60 000:857.467 - 0.007ms returns 0x00
T3D60 000:857.472 JLINK_WriteReg(R15 (PC), 0x20000188)
T3D60 000:857.477 - 0.007ms returns 0x00
T3D60 000:857.482 JLINK_WriteReg(XPSR, 0x01000000)
T3D60 000:857.488 - 0.007ms returns 0x00
T3D60 000:857.493 JLINK_WriteReg(MSP, 0x20004000)
T3D60 000:857.498 - 0.007ms returns 0x00
T3D60 000:857.503 JLINK_WriteReg(PSP, 0x20004000)
T3D60 000:857.540 - 0.041ms returns 0x00
T3D60 000:857.548 JLINK_WriteReg(CFBP, 0x00000000)
T3D60 000:857.553 - 0.007ms returns 0x00
T3D60 000:857.559   JLINK_SetBPEx(Addr = 0x20000000, Type = 0xFFFFFFF2)
T3D60 000:857.567 - 0.010ms returns 0x00000007
T3D60 000:857.572 JLINK_Go()
T3D60 000:857.582    -- CPU_ReadMem(4 bytes @ 0xE0001000)
T3D60 000:863.803 - 6.240ms
T3D60 000:863.818 JLINK_IsHalted()
T3D60 000:864.443 - 0.632ms returns FALSE
T3D60 000:867.082 JLINK_IsHalted()
T3D60 000:867.687 - 0.614ms returns FALSE
T3D60 000:869.087 JLINK_IsHalted()
T3D60 000:869.691 - 0.612ms returns FALSE
T3D60 000:871.071 JLINK_IsHalted()
T3D60 000:871.653 - 0.591ms returns FALSE
T3D60 000:873.042 JLINK_IsHalted()
T3D60 000:873.632 - 0.597ms returns FALSE
T3D60 000:874.994 JLINK_IsHalted()
T3D60 000:875.515 - 0.527ms returns FALSE
T3D60 000:876.992 JLINK_IsHalted()
T3D60 000:877.539 - 0.552ms returns FALSE
T3D60 000:878.982 JLINK_IsHalted()
T3D60 000:879.559 - 0.584ms returns FALSE
T3D60 000:881.061 JLINK_IsHalted()
T3D60 000:881.711 - 0.657ms returns FALSE
T3D60 000:885.988 JLINK_IsHalted()
T3D60 000:886.568 - 0.585ms returns FALSE
T3D60 000:887.985 JLINK_IsHalted()
T3D60 000:888.551 - 0.573ms returns FALSE
T3D60 000:890.019 JLINK_IsHalted()
T3D60 000:890.676 - 0.666ms returns FALSE
T3D60 000:892.022 JLINK_IsHalted()
T3D60 000:892.676 - 0.662ms returns FALSE
T3D60 000:894.010 JLINK_IsHalted()
T3D60 000:894.582 - 0.581ms returns FALSE
T3D60 000:896.013 JLINK_IsHalted()
T3D60 000:896.606 - 0.601ms returns FALSE
T3D60 000:898.010 JLINK_IsHalted()
T3D60 000:898.583 - 0.581ms returns FALSE
T3D60 000:899.968 JLINK_IsHalted()
T3D60 000:900.561 - 0.600ms returns FALSE
T3D60 000:901.946 JLINK_IsHalted()
T3D60 000:902.520 - 0.581ms returns FALSE
T3D60 000:903.914 JLINK_IsHalted()
T3D60 000:904.515 - 0.606ms returns FALSE
T3D60 000:905.935 JLINK_IsHalted()
T3D60 000:906.514 - 0.584ms returns FALSE
T3D60 000:907.989 JLINK_IsHalted()
T3D60 000:908.562 - 0.581ms returns FALSE
T3D60 000:909.988 JLINK_IsHalted()
T3D60 000:910.565 - 0.585ms returns FALSE
T3D60 000:911.987 JLINK_IsHalted()
T3D60 000:912.564 - 0.584ms returns FALSE
T3D60 000:913.956 JLINK_IsHalted()
T3D60 000:914.565 - 0.617ms returns FALSE
T3D60 000:915.959 JLINK_IsHalted()
T3D60 000:916.562 - 0.612ms returns FALSE
T3D60 000:917.954 JLINK_IsHalted()
T3D60 000:918.571 - 0.625ms returns FALSE
T3D60 000:919.903 JLINK_IsHalted()
T3D60 000:920.565 - 0.670ms returns FALSE
T3D60 000:921.869 JLINK_IsHalted()
T3D60 000:922.389 - 0.527ms returns FALSE
T3D60 000:923.862 JLINK_IsHalted()
T3D60 000:924.366 - 0.509ms returns FALSE
T3D60 000:925.855 JLINK_IsHalted()
T3D60 000:926.366 - 0.516ms returns FALSE
T3D60 000:927.922 JLINK_IsHalted()
T3D60 000:928.564 - 0.650ms returns FALSE
T3D60 000:929.944 JLINK_IsHalted()
T3D60 000:930.579 - 0.642ms returns FALSE
T3D60 000:935.830 JLINK_IsHalted()
T3D60 000:936.384 - 0.559ms returns FALSE
T3D60 000:937.926 JLINK_IsHalted()
T3D60 000:938.560 - 0.641ms returns FALSE
T3D60 000:939.894 JLINK_IsHalted()
T3D60 000:940.561 - 0.675ms returns FALSE
T3D60 000:941.882 JLINK_IsHalted()
T3D60 000:942.456 - 0.582ms returns FALSE
T3D60 000:943.881 JLINK_IsHalted()
T3D60 000:944.456 - 0.582ms returns FALSE
T3D60 000:945.831 JLINK_IsHalted()
T3D60 000:946.461 - 0.638ms returns FALSE
T3D60 000:949.817 JLINK_IsHalted()
T3D60 000:956.202    -- CPU_ReadMem(2 bytes @ 0x20000000)
T3D60 000:956.777 - 6.968ms returns TRUE
T3D60 000:956.793 JLINK_ReadReg(R15 (PC))
T3D60 000:956.800 - 0.010ms returns 0x20000000
T3D60 000:956.806 JLINK_ClrBPEx(BPHandle = 0x00000007)
T3D60 000:956.812 - 0.008ms returns 0x00
T3D60 000:956.818 JLINK_ReadReg(R0)
T3D60 000:956.823 - 0.007ms returns 0x00000000
T3D60 000:957.123 JLINK_WriteReg(R0, 0x00003000)
T3D60 000:957.133 - 0.012ms returns 0x00
T3D60 000:957.138 JLINK_WriteReg(R1, 0x00001000)
T3D60 000:957.143 - 0.007ms returns 0x00
T3D60 000:957.149 JLINK_WriteReg(R2, 0x000000FF)
T3D60 000:957.154 - 0.007ms returns 0x00
T3D60 000:957.159 JLINK_WriteReg(R3, 0x00000000)
T3D60 000:957.167 - 0.010ms returns 0x00
T3D60 000:957.172 JLINK_WriteReg(R4, 0x00000000)
T3D60 000:957.177 - 0.007ms returns 0x00
T3D60 000:957.183 JLINK_WriteReg(R5, 0x00000000)
T3D60 000:957.187 - 0.007ms returns 0x00
T3D60 000:957.193 JLINK_WriteReg(R6, 0x00000000)
T3D60 000:957.198 - 0.007ms returns 0x00
T3D60 000:957.203 JLINK_WriteReg(R7, 0x00000000)
T3D60 000:957.208 - 0.007ms returns 0x00
T3D60 000:957.213 JLINK_WriteReg(R8, 0x00000000)
T3D60 000:957.218 - 0.007ms returns 0x00
T3D60 000:957.223 JLINK_WriteReg(R9, 0x200006E0)
T3D60 000:957.228 - 0.007ms returns 0x00
T3D60 000:957.234 JLINK_WriteReg(R10, 0x00000000)
T3D60 000:957.238 - 0.007ms returns 0x00
T3D60 000:957.244 JLINK_WriteReg(R11, 0x00000000)
T3D60 000:957.249 - 0.007ms returns 0x00
T3D60 000:957.254 JLINK_WriteReg(R12, 0x00000000)
T3D60 000:957.259 - 0.007ms returns 0x00
T3D60 000:957.264 JLINK_WriteReg(R13 (SP), 0x20004000)
T3D60 000:957.270 - 0.007ms returns 0x00
T3D60 000:957.275 JLINK_WriteReg(R14, 0x20000001)
T3D60 000:957.280 - 0.007ms returns 0x00
T3D60 000:957.285 JLINK_WriteReg(R15 (PC), 0x20000344)
T3D60 000:957.290 - 0.007ms returns 0x00
T3D60 000:957.296 JLINK_WriteReg(XPSR, 0x01000000)
T3D60 000:957.301 - 0.007ms returns 0x00
T3D60 000:957.306 JLINK_WriteReg(MSP, 0x20004000)
T3D60 000:957.311 - 0.008ms returns 0x00
T3D60 000:957.317 JLINK_WriteReg(PSP, 0x20004000)
T3D60 000:957.322 - 0.007ms returns 0x00
T3D60 000:957.328 JLINK_WriteReg(CFBP, 0x00000000)
T3D60 000:957.332 - 0.007ms returns 0x00
T3D60 000:957.339   JLINK_SetBPEx(Addr = 0x20000000, Type = 0xFFFFFFF2)
T3D60 000:957.346 - 0.010ms returns 0x00000008
T3D60 000:957.352 JLINK_Go()
T3D60 000:957.363    -- CPU_ReadMem(4 bytes @ 0xE0001000)
T3D60 000:963.758 - 6.415ms
T3D60 000:963.775 JLINK_IsHalted()
T3D60 000:970.012    -- CPU_ReadMem(2 bytes @ 0x20000000)
T3D60 000:970.636 - 6.870ms returns TRUE
T3D60 000:970.653 JLINK_ReadReg(R15 (PC))
T3D60 000:970.660 - 0.010ms returns 0x20000000
T3D60 000:970.666 JLINK_ClrBPEx(BPHandle = 0x00000008)
T3D60 000:970.671 - 0.007ms returns 0x00
T3D60 000:970.677 JLINK_ReadReg(R0)
T3D60 000:970.682 - 0.007ms returns 0x00000001
T3D60 000:970.716 JLINK_WriteReg(R0, 0x00003000)
T3D60 000:970.722 - 0.008ms returns 0x00
T3D60 000:970.727 JLINK_WriteReg(R1, 0x00001000)
T3D60 000:970.732 - 0.007ms returns 0x00
T3D60 000:970.738 JLINK_WriteReg(R2, 0x000000FF)
T3D60 000:970.743 - 0.007ms returns 0x00
T3D60 000:970.748 JLINK_WriteReg(R3, 0x00000000)
T3D60 000:970.753 - 0.007ms returns 0x00
T3D60 000:970.759 JLINK_WriteReg(R4, 0x00000000)
T3D60 000:970.764 - 0.007ms returns 0x00
T3D60 000:970.770 JLINK_WriteReg(R5, 0x00000000)
T3D60 000:970.775 - 0.007ms returns 0x00
T3D60 000:970.780 JLINK_WriteReg(R6, 0x00000000)
T3D60 000:970.785 - 0.007ms returns 0x00
T3D60 000:970.790 JLINK_WriteReg(R7, 0x00000000)
T3D60 000:970.795 - 0.007ms returns 0x00
T3D60 000:970.801 JLINK_WriteReg(R8, 0x00000000)
T3D60 000:970.806 - 0.007ms returns 0x00
T3D60 000:970.811 JLINK_WriteReg(R9, 0x200006E0)
T3D60 000:970.816 - 0.007ms returns 0x00
T3D60 000:970.821 JLINK_WriteReg(R10, 0x00000000)
T3D60 000:970.826 - 0.007ms returns 0x00
T3D60 000:970.832 JLINK_WriteReg(R11, 0x00000000)
T3D60 000:970.837 - 0.007ms returns 0x00
T3D60 000:970.842 JLINK_WriteReg(R12, 0x00000000)
T3D60 000:970.847 - 0.007ms returns 0x00
T3D60 000:970.852 JLINK_WriteReg(R13 (SP), 0x20004000)
T3D60 000:970.857 - 0.007ms returns 0x00
T3D60 000:970.863 JLINK_WriteReg(R14, 0x20000001)
T3D60 000:970.868 - 0.007ms returns 0x00
T3D60 000:970.873 JLINK_WriteReg(R15 (PC), 0x20000188)
T3D60 000:970.878 - 0.007ms returns 0x00
T3D60 000:970.884 JLINK_WriteReg(XPSR, 0x01000000)
T3D60 000:970.889 - 0.007ms returns 0x00
T3D60 000:970.894 JLINK_WriteReg(MSP, 0x20004000)
T3D60 000:970.899 - 0.007ms returns 0x00
T3D60 000:970.904 JLINK_WriteReg(PSP, 0x20004000)
T3D60 000:970.909 - 0.007ms returns 0x00
T3D60 000:970.915 JLINK_WriteReg(CFBP, 0x00000000)
T3D60 000:970.919 - 0.007ms returns 0x00
T3D60 000:970.925   JLINK_SetBPEx(Addr = 0x20000000, Type = 0xFFFFFFF2)
T3D60 000:970.936 - 0.013ms returns 0x00000009
T3D60 000:970.942 JLINK_Go()
T3D60 000:970.952    -- CPU_ReadMem(4 bytes @ 0xE0001000)
T3D60 000:977.248 - 6.314ms
T3D60 000:977.263 JLINK_IsHalted()
T3D60 000:977.838 - 0.583ms returns FALSE
T3D60 000:979.718 JLINK_IsHalted()
T3D60 000:980.245 - 0.534ms returns FALSE
T3D60 000:981.706 JLINK_IsHalted()
T3D60 000:982.242 - 0.540ms returns FALSE
T3D60 000:983.787 JLINK_IsHalted()
T3D60 000:984.400 - 0.620ms returns FALSE
T3D60 000:985.796 JLINK_IsHalted()
T3D60 000:986.436 - 0.648ms returns FALSE
T3D60 000:987.757 JLINK_IsHalted()
T3D60 000:988.335 - 0.587ms returns FALSE
T3D60 000:989.754 JLINK_IsHalted()
T3D60 000:990.331 - 0.585ms returns FALSE
T3D60 000:991.723 JLINK_IsHalted()
T3D60 000:992.284 - 0.568ms returns FALSE
T3D60 000:996.668 JLINK_IsHalted()
T3D60 000:997.243 - 0.580ms returns FALSE
T3D60 000:998.662 JLINK_IsHalted()
T3D60 000:999.158 - 0.501ms returns FALSE
T3D60 001:000.733 JLINK_IsHalted()
T3D60 001:001.315 - 0.589ms returns FALSE
T3D60 001:002.718 JLINK_IsHalted()
T3D60 001:003.313 - 0.603ms returns FALSE
T3D60 001:004.718 JLINK_IsHalted()
T3D60 001:005.313 - 0.602ms returns FALSE
T3D60 001:006.708 JLINK_IsHalted()
T3D60 001:007.269 - 0.568ms returns FALSE
T3D60 001:008.707 JLINK_IsHalted()
T3D60 001:009.269 - 0.569ms returns FALSE
T3D60 001:010.672 JLINK_IsHalted()
T3D60 001:011.250 - 0.586ms returns FALSE
T3D60 001:012.626 JLINK_IsHalted()
T3D60 001:013.140 - 0.519ms returns FALSE
T3D60 001:014.618 JLINK_IsHalted()
T3D60 001:015.115 - 0.502ms returns FALSE
T3D60 001:016.613 JLINK_IsHalted()
T3D60 001:017.187 - 0.582ms returns FALSE
T3D60 001:018.676 JLINK_IsHalted()
T3D60 001:019.315 - 0.647ms returns FALSE
T3D60 001:020.684 JLINK_IsHalted()
T3D60 001:021.314 - 0.637ms returns FALSE
T3D60 001:022.697 JLINK_IsHalted()
T3D60 001:023.259 - 0.569ms returns FALSE
T3D60 001:024.644 JLINK_IsHalted()
T3D60 001:025.187 - 0.550ms returns FALSE
T3D60 001:026.592 JLINK_IsHalted()
T3D60 001:027.120 - 0.536ms returns FALSE
T3D60 001:028.643 JLINK_IsHalted()
T3D60 001:029.265 - 0.626ms returns FALSE
T3D60 001:030.600 JLINK_IsHalted()
T3D60 001:031.131 - 0.536ms returns FALSE
T3D60 001:032.633 JLINK_IsHalted()
T3D60 001:033.206 - 0.581ms returns FALSE
T3D60 001:034.663 JLINK_IsHalted()
T3D60 001:035.250 - 0.595ms returns FALSE
T3D60 001:036.639 JLINK_IsHalted()
T3D60 001:037.240 - 0.609ms returns FALSE
T3D60 001:038.621 JLINK_IsHalted()
T3D60 001:039.208 - 0.596ms returns FALSE
T3D60 001:040.617 JLINK_IsHalted()
T3D60 001:041.188 - 0.579ms returns FALSE
T3D60 001:042.612 JLINK_IsHalted()
T3D60 001:043.185 - 0.581ms returns FALSE
T3D60 001:044.625 JLINK_IsHalted()
T3D60 001:045.180 - 0.563ms returns FALSE
T3D60 001:046.536 JLINK_IsHalted()
T3D60 001:047.096 - 0.566ms returns FALSE
T3D60 001:048.561 JLINK_IsHalted()
T3D60 001:049.135 - 0.581ms returns FALSE
T3D60 001:050.557 JLINK_IsHalted()
T3D60 001:051.111 - 0.561ms returns FALSE
T3D60 001:052.589 JLINK_IsHalted()
T3D60 001:053.157 - 0.576ms returns FALSE
T3D60 001:054.602 JLINK_IsHalted()
T3D60 001:055.181 - 0.586ms returns FALSE
T3D60 001:059.501 JLINK_IsHalted()
T3D60 001:060.047 - 0.552ms returns FALSE
T3D60 001:061.592 JLINK_IsHalted()
T3D60 001:067.933    -- CPU_ReadMem(2 bytes @ 0x20000000)
T3D60 001:068.528 - 6.944ms returns TRUE
T3D60 001:068.542 JLINK_ReadReg(R15 (PC))
T3D60 001:068.549 - 0.009ms returns 0x20000000
T3D60 001:068.555 JLINK_ClrBPEx(BPHandle = 0x00000009)
T3D60 001:068.561 - 0.007ms returns 0x00
T3D60 001:068.567 JLINK_ReadReg(R0)
T3D60 001:068.572 - 0.007ms returns 0x00000000
T3D60 001:068.800 JLINK_WriteReg(R0, 0x00000001)
T3D60 001:068.810 - 0.012ms returns 0x00
T3D60 001:068.815 JLINK_WriteReg(R1, 0x00001000)
T3D60 001:068.821 - 0.007ms returns 0x00
T3D60 001:068.826 JLINK_WriteReg(R2, 0x000000FF)
T3D60 001:068.831 - 0.007ms returns 0x00
T3D60 001:068.836 JLINK_WriteReg(R3, 0x00000000)
T3D60 001:068.841 - 0.007ms returns 0x00
T3D60 001:068.847 JLINK_WriteReg(R4, 0x00000000)
T3D60 001:068.855 - 0.010ms returns 0x00
T3D60 001:068.860 JLINK_WriteReg(R5, 0x00000000)
T3D60 001:068.865 - 0.007ms returns 0x00
T3D60 001:068.870 JLINK_WriteReg(R6, 0x00000000)
T3D60 001:068.875 - 0.007ms returns 0x00
T3D60 001:068.880 JLINK_WriteReg(R7, 0x00000000)
T3D60 001:068.885 - 0.007ms returns 0x00
T3D60 001:068.891 JLINK_WriteReg(R8, 0x00000000)
T3D60 001:068.896 - 0.007ms returns 0x00
T3D60 001:068.901 JLINK_WriteReg(R9, 0x200006E0)
T3D60 001:068.906 - 0.007ms returns 0x00
T3D60 001:068.911 JLINK_WriteReg(R10, 0x00000000)
T3D60 001:068.916 - 0.007ms returns 0x00
T3D60 001:068.921 JLINK_WriteReg(R11, 0x00000000)
T3D60 001:068.926 - 0.007ms returns 0x00
T3D60 001:068.932 JLINK_WriteReg(R12, 0x00000000)
T3D60 001:068.937 - 0.007ms returns 0x00
T3D60 001:068.942 JLINK_WriteReg(R13 (SP), 0x20004000)
T3D60 001:068.947 - 0.007ms returns 0x00
T3D60 001:068.953 JLINK_WriteReg(R14, 0x20000001)
T3D60 001:068.958 - 0.007ms returns 0x00
T3D60 001:068.963 JLINK_WriteReg(R15 (PC), 0x20000090)
T3D60 001:068.968 - 0.007ms returns 0x00
T3D60 001:068.973 JLINK_WriteReg(XPSR, 0x01000000)
T3D60 001:068.978 - 0.007ms returns 0x00
T3D60 001:068.983 JLINK_WriteReg(MSP, 0x20004000)
T3D60 001:068.988 - 0.007ms returns 0x00
T3D60 001:068.994 JLINK_WriteReg(PSP, 0x20004000)
T3D60 001:068.998 - 0.007ms returns 0x00
T3D60 001:069.004 JLINK_WriteReg(CFBP, 0x00000000)
T3D60 001:069.009 - 0.007ms returns 0x00
T3D60 001:069.015   JLINK_SetBPEx(Addr = 0x20000000, Type = 0xFFFFFFF2)
T3D60 001:069.022 - 0.010ms returns 0x0000000A
T3D60 001:069.028 JLINK_Go()
T3D60 001:069.038    -- CPU_ReadMem(4 bytes @ 0xE0001000)
T3D60 001:075.309 - 6.289ms
T3D60 001:075.325 JLINK_IsHalted()
T3D60 001:081.571    -- CPU_ReadMem(2 bytes @ 0x20000000)
T3D60 001:082.099 - 6.782ms returns TRUE
T3D60 001:082.115 JLINK_ReadReg(R15 (PC))
T3D60 001:082.122 - 0.010ms returns 0x20000000
T3D60 001:082.129 JLINK_ClrBPEx(BPHandle = 0x0000000A)
T3D60 001:082.134 - 0.007ms returns 0x00
T3D60 001:082.140 JLINK_ReadReg(R0)
T3D60 001:082.145 - 0.007ms returns 0x00000000
T3D60 001:140.478 JLINK_WriteMem(0x20000000, 0x06E4 Bytes, ...)
T3D60 001:140.492   Data:  00 BE 0A E0 0D 78 2D 06 68 40 08 24 40 00 00 D3 ...
T3D60 001:140.511    -- CPU_WriteMem(1764 bytes @ 0x20000000)
T3D60 001:164.482 - 24.017ms returns 0x6E4
T3D60 001:164.530 JLINK_WriteReg(R0, 0x00000000)
T3D60 001:164.541 - 0.013ms returns 0x00
T3D60 001:164.547 JLINK_WriteReg(R1, 0x03D09000)
T3D60 001:164.552 - 0.007ms returns 0x00
T3D60 001:164.558 JLINK_WriteReg(R2, 0x00000002)
T3D60 001:164.563 - 0.007ms returns 0x00
T3D60 001:164.568 JLINK_WriteReg(R3, 0x00000000)
T3D60 001:164.573 - 0.007ms returns 0x00
T3D60 001:164.608 JLINK_WriteReg(R4, 0x00000000)
T3D60 001:164.613 - 0.007ms returns 0x00
T3D60 001:164.618 JLINK_WriteReg(R5, 0x00000000)
T3D60 001:164.623 - 0.007ms returns 0x00
T3D60 001:164.629 JLINK_WriteReg(R6, 0x00000000)
T3D60 001:164.634 - 0.007ms returns 0x00
T3D60 001:164.639 JLINK_WriteReg(R7, 0x00000000)
T3D60 001:164.644 - 0.007ms returns 0x00
T3D60 001:164.649 JLINK_WriteReg(R8, 0x00000000)
T3D60 001:164.654 - 0.007ms returns 0x00
T3D60 001:164.660 JLINK_WriteReg(R9, 0x200006E0)
T3D60 001:164.665 - 0.007ms returns 0x00
T3D60 001:164.670 JLINK_WriteReg(R10, 0x00000000)
T3D60 001:164.675 - 0.007ms returns 0x00
T3D60 001:164.680 JLINK_WriteReg(R11, 0x00000000)
T3D60 001:164.685 - 0.007ms returns 0x00
T3D60 001:164.692 JLINK_WriteReg(R12, 0x00000000)
T3D60 001:164.697 - 0.007ms returns 0x00
T3D60 001:164.702 JLINK_WriteReg(R13 (SP), 0x20004000)
T3D60 001:164.708 - 0.007ms returns 0x00
T3D60 001:164.713 JLINK_WriteReg(R14, 0x20000001)
T3D60 001:164.718 - 0.007ms returns 0x00
T3D60 001:164.724 JLINK_WriteReg(R15 (PC), 0x20000020)
T3D60 001:164.729 - 0.007ms returns 0x00
T3D60 001:164.734 JLINK_WriteReg(XPSR, 0x01000000)
T3D60 001:164.739 - 0.007ms returns 0x00
T3D60 001:164.745 JLINK_WriteReg(MSP, 0x20004000)
T3D60 001:164.750 - 0.007ms returns 0x00
T3D60 001:164.755 JLINK_WriteReg(PSP, 0x20004000)
T3D60 001:164.763 - 0.011ms returns 0x00
T3D60 001:164.770 JLINK_WriteReg(CFBP, 0x00000000)
T3D60 001:164.775 - 0.007ms returns 0x00
T3D60 001:164.782   JLINK_SetBPEx(Addr = 0x20000000, Type = 0xFFFFFFF2)
T3D60 001:164.794    -- CPU_ReadMem(2 bytes @ 0x20000000)
T3D60 001:165.314 - 0.539ms returns 0x0000000B
T3D60 001:165.326 JLINK_Go()
T3D60 001:165.334    -- CPU_WriteMem(2 bytes @ 0x20000000)
T3D60 001:165.913    -- CPU_ReadMem(4 bytes @ 0xE0001000)
T3D60 001:172.250 - 6.932ms
T3D60 001:172.266 JLINK_IsHalted()
T3D60 001:178.517    -- CPU_ReadMem(2 bytes @ 0x20000000)
T3D60 001:179.059 - 6.801ms returns TRUE
T3D60 001:179.075 JLINK_ReadReg(R15 (PC))
T3D60 001:179.082 - 0.009ms returns 0x20000000
T3D60 001:179.088 JLINK_ClrBPEx(BPHandle = 0x0000000B)
T3D60 001:179.094 - 0.008ms returns 0x00
T3D60 001:179.100 JLINK_ReadReg(R0)
T3D60 001:179.105 - 0.007ms returns 0x00000000
T3D60 001:179.328 JLINK_WriteMem(0x200006F4, 0x090C Bytes, ...)
T3D60 001:179.337   Data:  50 2B 00 20 F9 02 00 00 01 03 00 00 03 03 00 00 ...
T3D60 001:179.350    -- CPU_WriteMem(2316 bytes @ 0x200006F4)
T3D60 001:210.569 - 31.251ms returns 0x90C
T3D60 001:210.588 JLINK_WriteMem(0x20001000, 0x06F4 Bytes, ...)
T3D60 001:210.594   Data:  20 46 FF F7 74 FD 20 20 A0 71 10 BD C8 08 00 20 ...
T3D60 001:210.611    -- CPU_WriteMem(1780 bytes @ 0x20001000)
T3D60 001:234.750 - 24.174ms returns 0x6F4
T3D60 001:234.776 JLINK_WriteReg(R0, 0x00000000)
T3D60 001:234.785 - 0.012ms returns 0x00
T3D60 001:234.791 JLINK_WriteReg(R1, 0x00001000)
T3D60 001:234.797 - 0.007ms returns 0x00
T3D60 001:234.802 JLINK_WriteReg(R2, 0x200006F4)
T3D60 001:234.807 - 0.007ms returns 0x00
T3D60 001:234.812 JLINK_WriteReg(R3, 0x00000000)
T3D60 001:234.817 - 0.007ms returns 0x00
T3D60 001:234.823 JLINK_WriteReg(R4, 0x00000000)
T3D60 001:234.828 - 0.007ms returns 0x00
T3D60 001:234.833 JLINK_WriteReg(R5, 0x00000000)
